
T1764 000:311 SEGGER J-Link V5.10h Log File (0001ms, 0271ms total)
T1764 000:311 DLL Compiled: Jan 21 2016 19:24:29 (0001ms, 0271ms total)
T1764 000:311 Logging started @ 2019-08-22 02:53 (0001ms, 0271ms total)
T1764 000:312 JLINK_SetWarnOutHandler(...) (0000ms, 0271ms total)
T1764 000:312 JLINK_OpenEx(...)
Firmware: J-Link V9 compiled May 17 2019 09:50:41
Hardware: V9.20  returns O.K. (0266ms, 0537ms total)
T1764 000:578 JLINK_SetErrorOutHandler(...) (0000ms, 0537ms total)
T1764 000:578 JLINK_ExecCommand("ProjectFile = "D:\Works\kea\8_22_1_30\Project\MDK\JLinkSettings.ini"", ...)Device "ARM7" selected.  returns 0x00 (0002ms, 0539ms total)
T1764 000:585 JLINK_ExecCommand("Device = SKEAZ128xxx4", ...)Device "SKEAZ128XXX4" selected.  returns 0x00 (0004ms, 0543ms total)
T1764 000:589 JLINK_ExecCommand("DisableConnectionTimeout", ...)  returns 0x01 (0000ms, 0543ms total)
T1764 000:589 JLINK_GetHardwareVersion()  returns 0x16760 (0000ms, 0543ms total)
T1764 000:589 JLINK_GetDLLVersion()  returns 51008 (0000ms, 0543ms total)
T1764 000:589 JLINK_GetFirmwareString(...) (0000ms, 0543ms total)
T1764 000:598 JLINK_GetDLLVersion()  returns 51008 (0000ms, 0543ms total)
T1764 000:598 JLINK_GetCompileDateTime() (0000ms, 0543ms total)
T1764 000:602 JLINK_GetFirmwareString(...) (0000ms, 0543ms total)
T1764 000:604 JLINK_GetHardwareVersion()  returns 0x16760 (0000ms, 0543ms total)
T1764 000:606 JLINK_TIF_Select(JLINKARM_TIF_SWD)  returns 0x00 (0001ms, 0544ms total)
T1764 000:607 JLINK_SetSpeed(5000) (0001ms, 0545ms total)
T1764 000:608 JLINK_GetId() >0x108 TIF>Found SWD-DP with ID 0x0BC11477 >0x0D TIF> >0x28 TIF> >0x0D TIF> >0x28 TIF> >0x0D TIF> >0x28 TIF> >0x0D TIF> >0x28 TIF> >0x0D TIF> >0x21 TIF> >0x0D TIF> >0x28 TIF> >0x0D TIF> >0x21 TIF> >0x0D TIF> >0x21 TIF> >0x0D TIF> >0x21 TIF> >0x0D TIF> >0x21 TIF> >0x0D TIF> >0x21 TIF> >0x0D TIF> >0x21 TIF> >0x0D TIF> >0x21 TIF> >0x0D TIF> >0x21 TIF> >0x0D TIF> >0x21 TIF> >0x0D TIF> >0x21 TIF> >0x0D TIF> >0x21 TIF> >0x0D TIF> >0x21 TIF> >0x0D TIF> >0x21 TIF> >0x0D TIF>
 >0x21 TIF> >0x0D TIF> >0x21 TIF> >0x0D TIF> >0x21 TIF> >0x0D TIF> >0x21 TIF> >0x0D TIF> >0x21 TIF> >0x0D TIF> >0x21 TIF> >0x0D TIF> >0x21 TIF> >0x0D TIF> >0x21 TIF> >0x0D TIF> >0x21 TIF> >0x0D TIF> >0x21 TIF> >0x0D TIF> >0x21 TIF> >0x0D TIF> >0x21 TIF> >0x0D TIF> >0x21 TIF> >0x0D TIF> >0x21 TIF> >0x0D TIF> >0x21 TIF> >0x0D TIF> >0x21 TIF> >0x0D TIF> >0x21 TIF> >0x0D TIF> >0x21 TIF> >0x0D TIF> >0x21 TIF> >0x0D TIF> >0x21 TIF> >0x0D TIF> >0x21 TIF> >0x0D TIF> >0x21 TIF> >0x0D TIF> >0x21 TIF> >0x0D TIF>
 >0x21 TIF> >0x0D TIF> >0x21 TIF> >0x0D TIF> >0x21 TIF> >0x0D TIF> >0x21 TIF> >0x0D TIF> >0x21 TIF> >0x0D TIF> >0x21 TIF> >0x0D TIF> >0x21 TIF> >0x0D TIF> >0x21 TIF> >0x0D TIF> >0x21 TIF> >0x0D TIF> >0x21 TIF> >0x0D TIF> >0x21 TIF> >0x0D TIF> >0x21 TIF> >0x0D TIF> >0x21 TIF> >0x0D TIF> >0x21 TIF> >0x0D TIF> >0x21 TIF> >0x0D TIF> >0x21 TIF> >0x0D TIF> >0x21 TIF> >0x0D TIF> >0x21 TIF> >0x0D TIF> >0x21 TIF> >0x0D TIF> >0x21 TIF> >0x0D TIF> >0x21 TIF> >0x0D TIF> >0x21 TIF> >0x0D TIF> >0x21 TIF> >0x0D TIF>
 >0x21 TIF> >0x0D TIF> >0x21 TIF> >0x0D TIF> >0x21 TIF> >0x0D TIF> >0x21 TIF> >0x0D TIF> >0x21 TIF> >0x0D TIF> >0x21 TIF> >0x0D TIF> >0x21 TIF> >0x0D TIF> >0x21 TIF> >0x0D TIF> >0x21 TIF> >0x0D TIF> >0x21 TIF> >0x0D TIF> >0x21 TIF> >0x0D TIF> >0x21 TIF> >0x0D TIF> >0x21 TIF> >0x0D TIF> >0x21 TIF> >0x0D TIF> >0x21 TIF> >0x0D TIF> >0x21 TIF> >0x0D TIF> >0x21 TIF> >0x0D TIF> >0x21 TIF> >0x0D TIF> >0x21 TIF> >0x0D TIF> >0x21 TIF> >0x0D TIF> >0x21 TIF> >0x0D TIF> >0x21 TIF> >0x0D TIF> >0x21 TIF> >0x0D TIF>
 >0x21 TIF> >0x0D TIF> >0x21 TIF> >0x0D TIF> >0x21 TIF> >0x0D TIF> >0x21 TIF> >0x0D TIF> >0x21 TIF> >0x0D TIF> >0x21 TIF> >0x0D TIF> >0x21 TIF> >0x0D TIF> >0x21 TIF> >0x0D TIF> >0x21 TIF> >0x0D TIF> >0x21 TIF> >0x0D TIF> >0x21 TIF> >0x0D TIF> >0x21 TIF> >0x0D TIF> >0x21 TIF> >0x0D TIF> >0x21 TIF> >0x0D TIF> >0x21 TIF> >0x0D TIF> >0x21 TIF> >0x0D TIF> >0x21 TIF> >0x0D TIF> >0x21 TIF> >0x0D TIF> >0x21 TIF> >0x0D TIF> >0x21 TIF> >0x0D TIF> >0x21 TIF> >0x0D TIF> >0x21 TIF> >0x0D TIF> >0x21 TIF> >0x0D TIF>
 >0x21 TIF> >0x0D TIF> >0x21 TIF> >0x0D TIF> >0x21 TIF> >0x0D TIF> >0x21 TIF> >0x0D TIF> >0x21 TIF> >0x0D TIF> >0x21 TIF> >0x0D TIF> >0x21 TIF> >0x0D TIF> >0x21 TIF> >0x0D TIF> >0x21 TIF> >0x0D TIF> >0x21 TIF> >0x0D TIF> >0x21 TIF> >0x0D TIF> >0x21 TIF> >0x0D TIF> >0x21 TIF> >0x0D TIF> >0x21 TIF> >0x0D TIF> >0x21 TIF> >0x0D TIF> >0x21 TIF> >0x0D TIF> >0x21 TIF> >0x0D TIF> >0x21 TIF> >0x0D TIF> >0x21 TIF> >0x0D TIF> >0x21 TIF> >0x0D TIF> >0x21 TIF> >0x0D TIF> >0x21 TIF> >0x0D TIF> >0x21 TIF> >0x0D TIF>
 >0x21 TIF> >0x0D TIF> >0x21 TIF> >0x0D TIF> >0x21 TIF> >0x0D TIF> >0x21 TIF> >0x0D TIF> >0x21 TIF> >0x0D TIF> >0x21 TIF> >0x0D TIF> >0x21 TIF> >0x0D TIF> >0x21 TIF> >0x0D TIF> >0x21 TIF> >0x0D TIF> >0x21 TIF> >0x0D TIF> >0x21 TIF> >0x0D TIF> >0x21 TIF> >0x0D TIF> >0x21 TIF> >0x0D TIF> >0x21 TIF> >0x0D TIF> >0x21 TIF> >0x0D TIF> >0x21 TIF> >0x0D TIF> >0x21 TIF> >0x0D TIF> >0x21 TIF> >0x0D TIF> >0x21 TIF> >0x0D TIF> >0x21 TIF> >0x0D TIF> >0x21 TIF> >0x0D TIF> >0x21 TIF> >0x0D TIF> >0x21 TIF> >0x0D TIF>
 >0x21 TIF> >0x0D TIF> >0x21 TIF> >0x0D TIF> >0x21 TIF> >0x0D TIF> >0x21 TIF> >0x0D TIF> >0x21 TIF> >0x0D TIF> >0x21 TIF> >0x0D TIF> >0x21 TIF> >0x0D TIF> >0x21 TIF> >0x0D TIF> >0x21 TIF> >0x0D TIF> >0x21 TIF> >0x0D TIF> >0x21 TIF> >0x0D TIF> >0x21 TIF> >0x0D TIF> >0x21 TIF> >0x0D TIF> >0x28 TIF> >0x0D TIF> >0x28 TIF> >0x0D TIF> >0x28 TIF> >0x0D TIF> >0x21 TIF> >0x0D TIF> >0x21 TIF> >0x108 TIF>Found SWD-DP with ID 0x0BC11477 >0x0D TIF> >0x28 TIF> >0x0D TIF> >0x28 TIF> >0x0D TIF> >0x28 TIF> >0x0D TIF>
 >0x28 TIF> >0x0D TIF> >0x21 TIF> >0x0D TIF> >0x28 TIF> >0x0D TIF> >0x28 TIF> >0x0D TIF> >0x21 TIF> >0x0D TIF> >0x21 TIF> >0x0D TIF> >0x21 TIF> >0x0D TIF> >0x28 TIF> >0x0D TIF> >0x28 TIF> >0x0D TIF> >0x28 TIF> >0x0D TIF> >0x21 TIF> >0x0D TIF> >0x21 TIF> >0x0D TIF> >0x28 TIF> >0x0D TIF> >0x21 TIF> >0x0D TIF> >0x21 TIF>Found Cortex-M0 r0p0, Little endian. -- CPU_ReadMem(4 bytes @ 0xE000EDF0) -- CPU_WriteMem(4 bytes @ 0xE000EDF0) -- CPU_ReadMem(4 bytes @ 0xE0002000)
FPUnit: 2 code (BP) slots and 0 literal slots -- CPU_ReadMem(4 bytes @ 0xE000EDFC) -- CPU_WriteMem(4 bytes @ 0xE000EDFC) -- CPU_ReadMem(4 bytes @ 0xE0001000) -- CPU_WriteMem(4 bytes @ 0xE0001000)CoreSight components:ROMTbl 0 @ F0002000 -- CPU_ReadMem(16 bytes @ 0xF0002000) -- CPU_ReadMem(16 bytes @ 0xE00FFFF0) -- CPU_ReadMem(16 bytes @ 0xE00FFFE0)ROMTbl 0 [0]: F00FD000, CID: B105100D, PID: 000BB4C0 ROM TableROMTbl 1 @ E00FF000 -- CPU_ReadMem(16 bytes @ 0xE00FF000) -- CPU_ReadMem(16 bytes @ 0xE000EFF0)
 -- CPU_ReadMem(16 bytes @ 0xE000EFE0)ROMTbl 1 [0]: FFF0F000, CID: B105E00D, PID: 000BB008 SCS -- CPU_ReadMem(16 bytes @ 0xE0001FF0) -- CPU_ReadMem(16 bytes @ 0xE0001FE0)ROMTbl 1 [1]: FFF02000, CID: B105E00D, PID: 000BB00A DWT -- CPU_ReadMem(16 bytes @ 0xE0002FF0) -- CPU_ReadMem(16 bytes @ 0xE0002FE0)ROMTbl 1 [2]: FFF03000, CID: B105E00D, PID: 000BB00B FPB -- CPU_ReadMem(1 bytes @ 0x40052000) >0x0D TIF> >0x21 TIF>  returns 0x0BC11477 (0091ms, 0636ms total)
T1764 000:699 JLINK_GetDLLVersion()  returns 51008 (0000ms, 0636ms total)
T1764 000:699 JLINK_CORE_GetFound()  returns 0x60000FF (0000ms, 0636ms total)
T1764 000:699 JLINK_GetDebugInfo(0x100) -- Value=0xF0002000  returns 0x00 (0001ms, 0637ms total)
T1764 000:701 JLINK_GetDebugInfo(0x100) -- Value=0xF0002000  returns 0x00 (0000ms, 0637ms total)
T1764 000:701 JLINK_GetDebugInfo(0x101) -- Value=0x00000000  returns 0x00 (0000ms, 0637ms total)
T1764 000:702 JLINK_ReadMem (0xE0041FF0, 0x0010 Bytes, ...) -- CPU_ReadMem(16 bytes @ 0xE0041FF0) - Data: 00 00 00 00 00 00 00 00 00 00 00 00 00 00 00 00  returns 0x00 (0000ms, 0638ms total)
T1764 000:702 JLINK_GetDebugInfo(0x102) -- Value=0x00000000  returns 0x00 (0000ms, 0638ms total)
T1764 000:702 JLINK_GetDebugInfo(0x103) -- Value=0x00000000  returns 0x00 (0000ms, 0638ms total)
T1764 000:702 JLINK_ReadMem (0xE0040FF0, 0x0010 Bytes, ...) -- CPU_ReadMem(16 bytes @ 0xE0040FF0) - Data: 00 00 00 00 00 00 00 00 00 00 00 00 00 00 00 00  returns 0x00 (0001ms, 0639ms total)
T1764 000:703 JLINK_GetDebugInfo(0x104) -- Value=0xE0000000  returns 0x00 (0000ms, 0639ms total)
T1764 000:703 JLINK_GetDebugInfo(0x105) -- Value=0xE0001000  returns 0x00 (0000ms, 0639ms total)
T1764 000:703 JLINK_GetDebugInfo(0x106) -- Value=0xE0002000  returns 0x00 (0000ms, 0639ms total)
T1764 000:703 JLINK_GetDebugInfo(0x107) -- Value=0xE000E000  returns 0x00 (0000ms, 0639ms total)
T1764 000:703 JLINK_GetDebugInfo(0x10C) -- Value=0xE000EDF0  returns 0x00 (0000ms, 0639ms total)
T1764 000:703 JLINK_ReadMemU32(0xE000ED00, 0x0001 Items, ...) -- CPU_ReadMem(4 bytes @ 0xE000ED00) - Data: 00 C6 0C 41  returns 0x01 (0001ms, 0640ms total)
T1764 000:704 JLINK_SetResetType(JLINKARM_RESET_TYPE_ADI)  returns JLINKARM_RESET_TYPE_NORMAL (0000ms, 0640ms total)
T1764 000:704 JLINK_Reset() -- CPU_WriteMem(4 bytes @ 0xE000EDF0) -- CPU_WriteMem(4 bytes @ 0xE000EDFC) -- CPU_WriteMem(4 bytes @ 0xE000EDF0) -- CPU_WriteMem(4 bytes @ 0xE000EDFC) -- CPU_ReadMem(4 bytes @ 0xE000EDF0) -- CPU_WriteMem(4 bytes @ 0xE000EDFC) -- CPU_WriteMem(4 bytes @ 0xE000ED0C) -- CPU_ReadMem(4 bytes @ 0xE000EDF0) -- CPU_ReadMem(4 bytes @ 0xE000EDF0) -- CPU_WriteMem(4 bytes @ 0xE000EDF0) -- CPU_WriteMem(4 bytes @ 0xE000EDFC) -- CPU is running -- CPU_ReadMem(4 bytes @ 0xE000EDF0)
 -- CPU_ReadMem(1 bytes @ 0x40052000) -- CPU_WriteMem(1 bytes @ 0x40052004) -- CPU_WriteMem(1 bytes @ 0x40052005) -- CPU_WriteMem(1 bytes @ 0x40052006) -- CPU_WriteMem(1 bytes @ 0x40052007) -- CPU_WriteMem(1 bytes @ 0x40052001) -- CPU_WriteMem(1 bytes @ 0x40052000) -- CPU_ReadMem(1 bytes @ 0x40052000) -- CPU_WriteMem(4 bytes @ 0xE0002000) -- CPU_ReadMem(4 bytes @ 0xE000EDFC) -- CPU_ReadMem(4 bytes @ 0xE0001000) -- CPU_WriteMem(4 bytes @ 0xE0001000) (0157ms, 0797ms total)
T1764 000:861 JLINK_Halt()  returns 0x00 (0000ms, 0797ms total)
T1764 000:861 JLINK_IsHalted()  returns TRUE (0000ms, 0797ms total)
T1764 000:861 JLINK_ReadMemU32(0xE000EDF0, 0x0001 Items, ...) -- CPU_ReadMem(4 bytes @ 0xE000EDF0) - Data: 03 00 03 00  returns 0x01 (0001ms, 0798ms total)
T1764 000:862 JLINK_WriteU32(0xE000EDF0, 0xA05F0003) -- CPU_WriteMem(4 bytes @ 0xE000EDF0)  returns 0x00 (0000ms, 0798ms total)
T1764 000:862 JLINK_WriteU32(0xE000EDFC, 0x01000000) -- CPU_WriteMem(4 bytes @ 0xE000EDFC)  returns 0x00 (0001ms, 0799ms total)
T1764 000:869 JLINK_GetHWStatus(...)  returns 0x00 (0000ms, 0799ms total)
T1764 000:873 JLINK_GetNumBPUnits(Type = 0xFFFFFF00)  returns 0x02 (0000ms, 0799ms total)
T1764 000:873 JLINK_GetNumBPUnits(Type = 0xF0)  returns 0x2000 (0000ms, 0799ms total)
T1764 000:873 JLINK_GetNumWPUnits()  returns 0x02 (0000ms, 0799ms total)
T1764 000:879 JLINK_GetSpeed()  returns 0xFA0 (0000ms, 0799ms total)
T1764 000:882 JLINK_ReadMemU32(0xE000E004, 0x0001 Items, ...) -- CPU_ReadMem(4 bytes @ 0xE000E004) - Data: 00 00 00 00  returns 0x01 (0000ms, 0799ms total)
T1764 000:882 JLINK_Halt()  returns 0x00 (0000ms, 0799ms total)
T1764 000:882 JLINK_IsHalted()  returns TRUE (0000ms, 0799ms total)
T1764 000:885 JLINK_WriteMem(0x1FFFF000, 0x01AC Bytes, ...) - Data: 00 BE 0A E0 0D 78 2D 06 68 40 08 24 40 00 00 D3 ... -- CPU_WriteMem(428 bytes @ 0x1FFFF000)  returns 0x1AC (0002ms, 0801ms total)
T1764 000:887 JLINK_WriteReg(R0, 0x00000000)  returns 0x00 (0000ms, 0801ms total)
T1764 000:887 JLINK_WriteReg(R1, 0x00B71B00)  returns 0x00 (0000ms, 0801ms total)
T1764 000:887 JLINK_WriteReg(R2, 0x00000001)  returns 0x00 (0001ms, 0802ms total)
T1764 000:888 JLINK_WriteReg(R3, 0x00000000)  returns 0x00 (0000ms, 0802ms total)
T1764 000:888 JLINK_WriteReg(R4, 0x00000000)  returns 0x00 (0000ms, 0802ms total)
T1764 000:888 JLINK_WriteReg(R5, 0x00000000)  returns 0x00 (0000ms, 0802ms total)
T1764 000:888 JLINK_WriteReg(R6, 0x00000000)  returns 0x00 (0000ms, 0802ms total)
T1764 000:888 JLINK_WriteReg(R7, 0x00000000)  returns 0x00 (0000ms, 0802ms total)
T1764 000:888 JLINK_WriteReg(R8, 0x00000000)  returns 0x00 (0000ms, 0802ms total)
T1764 000:888 JLINK_WriteReg(R9, 0x1FFFF1A8)  returns 0x00 (0000ms, 0802ms total)
T1764 000:888 JLINK_WriteReg(R10, 0x00000000)  returns 0x00 (0000ms, 0802ms total)
T1764 000:888 JLINK_WriteReg(R11, 0x00000000)  returns 0x00 (0000ms, 0802ms total)
T1764 000:888 JLINK_WriteReg(R12, 0x00000000)  returns 0x00 (0000ms, 0802ms total)
T1764 000:888 JLINK_WriteReg(R13 (SP), 0x20000000)  returns 0x00 (0001ms, 0803ms total)
T1764 000:889 JLINK_WriteReg(R14, 0x1FFFF001)  returns 0x00 (0000ms, 0803ms total)
T1764 000:889 JLINK_WriteReg(R15 (PC), 0x1FFFF038)  returns 0x00 (0000ms, 0803ms total)
T1764 000:889 JLINK_WriteReg(XPSR, 0x01000000)  returns 0x00 (0000ms, 0803ms total)
T1764 000:889 JLINK_WriteReg(MSP, 0x20000000)  returns 0x00 (0000ms, 0803ms total)
T1764 000:889 JLINK_WriteReg(PSP, 0x20000000)  returns 0x00 (0000ms, 0803ms total)
T1764 000:889 JLINK_WriteReg(CFBP, 0x00000000)  returns 0x00 (0000ms, 0803ms total)
T1764 000:889 JLINK_SetBPEx(Addr = 0x1FFFF000, Type = 0xFFFFFFF2)  returns 0x00000001 (0000ms, 0803ms total)
T1764 000:889 JLINK_Go() -- CPU_WriteMem(4 bytes @ 0xE0002000) -- CPU_ReadMem(4 bytes @ 0xE0001000) -- CPU_WriteMem(4 bytes @ 0xE0001000) -- CPU_WriteMem(4 bytes @ 0xE0002008) -- CPU_WriteMem(4 bytes @ 0xE000200C) -- CPU_WriteMem(4 bytes @ 0xE0001004) (0004ms, 0807ms total)
T1764 000:893 JLINK_IsHalted()  returns TRUE (0003ms, 0810ms total)
T1764 000:896 JLINK_ReadReg(R15 (PC))  returns 0x1FFFF000 (0000ms, 0807ms total)
T1764 000:896 JLINK_ClrBPEx(BPHandle = 0x00000001)  returns 0x00 (0000ms, 0807ms total)
T1764 000:896 JLINK_ReadReg(R0)  returns 0x00000000 (0000ms, 0807ms total)
T1764 000:896 JLINK_WriteReg(R0, 0x00000000)  returns 0x00 (0000ms, 0807ms total)
T1764 000:896 JLINK_WriteReg(R1, 0x00B71B00)  returns 0x00 (0000ms, 0807ms total)
T1764 000:896 JLINK_WriteReg(R2, 0x00000001)  returns 0x00 (0000ms, 0807ms total)
T1764 000:896 JLINK_WriteReg(R3, 0x00000000)  returns 0x00 (0000ms, 0807ms total)
T1764 000:896 JLINK_WriteReg(R4, 0x00000000)  returns 0x00 (0000ms, 0807ms total)
T1764 000:896 JLINK_WriteReg(R5, 0x00000000)  returns 0x00 (0000ms, 0807ms total)
T1764 000:896 JLINK_WriteReg(R6, 0x00000000)  returns 0x00 (0000ms, 0807ms total)
T1764 000:896 JLINK_WriteReg(R7, 0x00000000)  returns 0x00 (0001ms, 0808ms total)
T1764 000:897 JLINK_WriteReg(R8, 0x00000000)  returns 0x00 (0000ms, 0808ms total)
T1764 000:897 JLINK_WriteReg(R9, 0x1FFFF1A8)  returns 0x00 (0000ms, 0808ms total)
T1764 000:897 JLINK_WriteReg(R10, 0x00000000)  returns 0x00 (0000ms, 0808ms total)
T1764 000:897 JLINK_WriteReg(R11, 0x00000000)  returns 0x00 (0000ms, 0808ms total)
T1764 000:897 JLINK_WriteReg(R12, 0x00000000)  returns 0x00 (0000ms, 0808ms total)
T1764 000:897 JLINK_WriteReg(R13 (SP), 0x20000000)  returns 0x00 (0000ms, 0808ms total)
T1764 000:897 JLINK_WriteReg(R14, 0x1FFFF001)  returns 0x00 (0000ms, 0808ms total)
T1764 000:897 JLINK_WriteReg(R15 (PC), 0x1FFFF06C)  returns 0x00 (0000ms, 0808ms total)
T1764 000:897 JLINK_WriteReg(XPSR, 0x01000000)  returns 0x00 (0000ms, 0808ms total)
T1764 000:897 JLINK_WriteReg(MSP, 0x20000000)  returns 0x00 (0000ms, 0808ms total)
T1764 000:897 JLINK_WriteReg(PSP, 0x20000000)  returns 0x00 (0001ms, 0809ms total)
T1764 000:898 JLINK_WriteReg(CFBP, 0x00000000)  returns 0x00 (0000ms, 0809ms total)
T1764 000:898 JLINK_SetBPEx(Addr = 0x1FFFF000, Type = 0xFFFFFFF2)  returns 0x00000002 (0000ms, 0809ms total)
T1764 000:898 JLINK_Go() -- CPU_WriteMem(4 bytes @ 0xE0002000) -- CPU_ReadMem(4 bytes @ 0xE0001000) -- CPU_WriteMem(4 bytes @ 0xE0001000) (0002ms, 0811ms total)
T1764 000:900 JLINK_IsHalted()  returns FALSE (0001ms, 0812ms total)
T1764 000:945 JLINK_IsHalted()  returns FALSE (0001ms, 0812ms total)
T1764 000:949 JLINK_IsHalted()  returns FALSE (0001ms, 0812ms total)
T1764 000:951 JLINK_IsHalted()  returns FALSE (0000ms, 0811ms total)
T1764 000:953 JLINK_IsHalted()  returns FALSE (0000ms, 0811ms total)
T1764 000:955 JLINK_IsHalted()  returns FALSE (0000ms, 0811ms total)
T1764 000:957 JLINK_IsHalted()  returns FALSE (0000ms, 0811ms total)
T1764 000:960 JLINK_IsHalted()  returns FALSE (0000ms, 0811ms total)
T1764 000:962 JLINK_IsHalted()  returns FALSE (0000ms, 0811ms total)
T1764 000:963 JLINK_IsHalted()  returns FALSE (0000ms, 0811ms total)
T1764 000:966 JLINK_IsHalted()  returns FALSE (0000ms, 0811ms total)
T1764 000:968 JLINK_IsHalted()  returns FALSE (0000ms, 0811ms total)
T1764 000:970 JLINK_IsHalted()  returns FALSE (0000ms, 0811ms total)
T1764 000:973 JLINK_IsHalted()  returns FALSE (0000ms, 0811ms total)
T1764 000:975 JLINK_IsHalted()  returns FALSE (0000ms, 0811ms total)
T1764 000:977 JLINK_IsHalted()  returns FALSE (0000ms, 0811ms total)
T1764 000:979 JLINK_IsHalted()  returns FALSE (0001ms, 0812ms total)
T1764 000:982 JLINK_IsHalted()  returns FALSE (0000ms, 0811ms total)
T1764 000:984 JLINK_IsHalted()  returns FALSE (0000ms, 0811ms total)
T1764 000:986 JLINK_IsHalted()  returns FALSE (0000ms, 0811ms total)
T1764 000:988 JLINK_IsHalted()  returns FALSE (0000ms, 0811ms total)
T1764 000:990 JLINK_IsHalted()  returns FALSE (0000ms, 0811ms total)
T1764 000:993 JLINK_IsHalted()  returns FALSE (0000ms, 0811ms total)
T1764 000:996 JLINK_IsHalted()  returns FALSE (0000ms, 0811ms total)
T1764 000:998 JLINK_IsHalted()  returns FALSE (0000ms, 0811ms total)
T1764 001:000 JLINK_IsHalted()  returns FALSE (0000ms, 0811ms total)
T1764 001:002 JLINK_IsHalted()  returns FALSE (0000ms, 0811ms total)
T1764 001:004 JLINK_IsHalted()  returns FALSE (0000ms, 0811ms total)
T1764 001:007 JLINK_IsHalted()  returns FALSE (0000ms, 0811ms total)
T1764 001:009 JLINK_IsHalted()  returns FALSE (0000ms, 0811ms total)
T1764 001:011 JLINK_IsHalted()  returns FALSE (0000ms, 0811ms total)
T1764 001:014 JLINK_IsHalted()  returns FALSE (0000ms, 0811ms total)
T1764 001:016 JLINK_IsHalted()  returns FALSE (0000ms, 0811ms total)
T1764 001:018 JLINK_IsHalted()  returns FALSE (0000ms, 0811ms total)
T1764 001:020 JLINK_IsHalted()  returns FALSE (0000ms, 0811ms total)
T1764 001:023 JLINK_IsHalted()  returns FALSE (0000ms, 0811ms total)
T1764 001:025 JLINK_IsHalted()  returns FALSE (0000ms, 0811ms total)
T1764 001:027 JLINK_IsHalted()  returns FALSE (0000ms, 0811ms total)
T1764 001:029 JLINK_IsHalted()  returns FALSE (0000ms, 0811ms total)
T1764 001:031 JLINK_IsHalted()  returns FALSE (0000ms, 0811ms total)
T1764 001:034 JLINK_IsHalted()  returns FALSE (0000ms, 0811ms total)
T1764 001:036 JLINK_IsHalted()  returns FALSE (0000ms, 0811ms total)
T1764 001:038 JLINK_IsHalted()  returns FALSE (0000ms, 0811ms total)
T1764 001:041 JLINK_IsHalted()  returns FALSE (0000ms, 0811ms total)
T1764 001:044 JLINK_IsHalted()  returns FALSE (0000ms, 0811ms total)
T1764 001:046 JLINK_IsHalted()  returns TRUE (0002ms, 0813ms total)
T1764 001:048 JLINK_ReadReg(R15 (PC))  returns 0x1FFFF000 (0000ms, 0811ms total)
T1764 001:048 JLINK_ClrBPEx(BPHandle = 0x00000002)  returns 0x00 (0000ms, 0811ms total)
T1764 001:048 JLINK_ReadReg(R0)  returns 0x00000000 (0000ms, 0811ms total)
T1764 001:102 JLINK_WriteReg(R0, 0x00000001)  returns 0x00 (0000ms, 0811ms total)
T1764 001:102 JLINK_WriteReg(R1, 0x00B71B00)  returns 0x00 (0000ms, 0811ms total)
T1764 001:103 JLINK_WriteReg(R2, 0x00000001)  returns 0x00 (0000ms, 0812ms total)
T1764 001:103 JLINK_WriteReg(R3, 0x00000000)  returns 0x00 (0000ms, 0812ms total)
T1764 001:103 JLINK_WriteReg(R4, 0x00000000)  returns 0x00 (0001ms, 0813ms total)
T1764 001:104 JLINK_WriteReg(R5, 0x00000000)  returns 0x00 (0000ms, 0813ms total)
T1764 001:104 JLINK_WriteReg(R6, 0x00000000)  returns 0x00 (0001ms, 0814ms total)
T1764 001:105 JLINK_WriteReg(R7, 0x00000000)  returns 0x00 (0000ms, 0814ms total)
T1764 001:105 JLINK_WriteReg(R8, 0x00000000)  returns 0x00 (0001ms, 0815ms total)
T1764 001:106 JLINK_WriteReg(R9, 0x1FFFF1A8)  returns 0x00 (0000ms, 0815ms total)
T1764 001:106 JLINK_WriteReg(R10, 0x00000000)  returns 0x00 (0001ms, 0816ms total)
T1764 001:107 JLINK_WriteReg(R11, 0x00000000)  returns 0x00 (0000ms, 0816ms total)
T1764 001:107 JLINK_WriteReg(R12, 0x00000000)  returns 0x00 (0001ms, 0817ms total)
T1764 001:108 JLINK_WriteReg(R13 (SP), 0x20000000)  returns 0x00 (0000ms, 0817ms total)
T1764 001:108 JLINK_WriteReg(R14, 0x1FFFF001)  returns 0x00 (0001ms, 0818ms total)
T1764 001:109 JLINK_WriteReg(R15 (PC), 0x1FFFF068)  returns 0x00 (0000ms, 0818ms total)
T1764 001:109 JLINK_WriteReg(XPSR, 0x01000000)  returns 0x00 (0000ms, 0818ms total)
T1764 001:110 JLINK_WriteReg(MSP, 0x20000000)  returns 0x00 (0000ms, 0819ms total)
T1764 001:110 JLINK_WriteReg(PSP, 0x20000000)  returns 0x00 (0000ms, 0819ms total)
T1764 001:110 JLINK_WriteReg(CFBP, 0x00000000)  returns 0x00 (0001ms, 0820ms total)
T1764 001:111 JLINK_SetBPEx(Addr = 0x1FFFF000, Type = 0xFFFFFFF2)  returns 0x00000003 (0000ms, 0820ms total)
T1764 001:111 JLINK_Go() -- CPU_WriteMem(4 bytes @ 0xE0002000) -- CPU_ReadMem(4 bytes @ 0xE0001000) -- CPU_WriteMem(4 bytes @ 0xE0001000) (0004ms, 0824ms total)
T1764 001:115 JLINK_IsHalted()  returns TRUE (0003ms, 0827ms total)
T1764 001:118 JLINK_ReadReg(R15 (PC))  returns 0x1FFFF000 (0001ms, 0825ms total)
T1764 001:119 JLINK_ClrBPEx(BPHandle = 0x00000003)  returns 0x00 (0000ms, 0825ms total)
T1764 001:119 JLINK_ReadReg(R0)  returns 0x00000000 (0001ms, 0826ms total)
T1764 001:135 JLINK_WriteMem(0x1FFFF000, 0x01AC Bytes, ...) - Data: 00 BE 0A E0 0D 78 2D 06 68 40 08 24 40 00 00 D3 ... -- CPU_WriteMem(428 bytes @ 0x1FFFF000)  returns 0x1AC (0002ms, 0828ms total)
T1764 001:138 JLINK_WriteReg(R0, 0x00000000)  returns 0x00 (0000ms, 0829ms total)
T1764 001:138 JLINK_WriteReg(R1, 0x00B71B00)  returns 0x00 (0000ms, 0829ms total)
T1764 001:138 JLINK_WriteReg(R2, 0x00000002)  returns 0x00 (0000ms, 0829ms total)
T1764 001:138 JLINK_WriteReg(R3, 0x00000000)  returns 0x00 (0000ms, 0829ms total)
T1764 001:138 JLINK_WriteReg(R4, 0x00000000)  returns 0x00 (0000ms, 0829ms total)
T1764 001:139 JLINK_WriteReg(R5, 0x00000000)  returns 0x00 (0000ms, 0830ms total)
T1764 001:139 JLINK_WriteReg(R6, 0x00000000)  returns 0x00 (0000ms, 0830ms total)
T1764 001:139 JLINK_WriteReg(R7, 0x00000000)  returns 0x00 (0000ms, 0830ms total)
T1764 001:139 JLINK_WriteReg(R8, 0x00000000)  returns 0x00 (0000ms, 0830ms total)
T1764 001:139 JLINK_WriteReg(R9, 0x1FFFF1A8)  returns 0x00 (0000ms, 0830ms total)
T1764 001:139 JLINK_WriteReg(R10, 0x00000000)  returns 0x00 (0000ms, 0830ms total)
T1764 001:140 JLINK_WriteReg(R11, 0x00000000)  returns 0x00 (0000ms, 0831ms total)
T1764 001:140 JLINK_WriteReg(R12, 0x00000000)  returns 0x00 (0000ms, 0831ms total)
T1764 001:140 JLINK_WriteReg(R13 (SP), 0x20000000)  returns 0x00 (0000ms, 0831ms total)
T1764 001:140 JLINK_WriteReg(R14, 0x1FFFF001)  returns 0x00 (0000ms, 0831ms total)
T1764 001:140 JLINK_WriteReg(R15 (PC), 0x1FFFF038)  returns 0x00 (0000ms, 0831ms total)
T1764 001:140 JLINK_WriteReg(XPSR, 0x01000000)  returns 0x00 (0000ms, 0831ms total)
T1764 001:140 JLINK_WriteReg(MSP, 0x20000000)  returns 0x00 (0001ms, 0832ms total)
T1764 001:141 JLINK_WriteReg(PSP, 0x20000000)  returns 0x00 (0000ms, 0832ms total)
T1764 001:141 JLINK_WriteReg(CFBP, 0x00000000)  returns 0x00 (0000ms, 0832ms total)
T1764 001:141 JLINK_SetBPEx(Addr = 0x1FFFF000, Type = 0xFFFFFFF2)  returns 0x00000004 (0000ms, 0832ms total)
T1764 001:141 JLINK_Go() -- CPU_WriteMem(4 bytes @ 0xE0002000) -- CPU_ReadMem(4 bytes @ 0xE0001000) -- CPU_WriteMem(4 bytes @ 0xE0001000) (0002ms, 0834ms total)
T1764 001:143 JLINK_IsHalted()  returns TRUE (0003ms, 0837ms total)
T1764 001:146 JLINK_ReadReg(R15 (PC))  returns 0x1FFFF000 (0000ms, 0834ms total)
T1764 001:146 JLINK_ClrBPEx(BPHandle = 0x00000004)  returns 0x00 (0000ms, 0834ms total)
T1764 001:146 JLINK_ReadReg(R0)  returns 0x00000000 (0000ms, 0834ms total)
T1764 001:147 JLINK_WriteMem(0x1FFFF1AC, 0x0100 Bytes, ...) - Data: A0 05 00 20 D7 00 00 00 E3 00 00 00 E5 00 00 00 ... -- CPU_WriteMem(256 bytes @ 0x1FFFF1AC)  returns 0x100 (0001ms, 0835ms total)
T1764 001:148 JLINK_WriteReg(R0, 0x00000000)  returns 0x00 (0001ms, 0836ms total)
T1764 001:149 JLINK_WriteReg(R1, 0x00000100)  returns 0x00 (0000ms, 0836ms total)
T1764 001:149 JLINK_WriteReg(R2, 0x1FFFF1AC)  returns 0x00 (0000ms, 0836ms total)
T1764 001:149 JLINK_WriteReg(R3, 0x00000000)  returns 0x00 (0000ms, 0836ms total)
T1764 001:149 JLINK_WriteReg(R4, 0x00000000)  returns 0x00 (0000ms, 0836ms total)
T1764 001:149 JLINK_WriteReg(R5, 0x00000000)  returns 0x00 (0000ms, 0836ms total)
T1764 001:149 JLINK_WriteReg(R6, 0x00000000)  returns 0x00 (0000ms, 0836ms total)
T1764 001:149 JLINK_WriteReg(R7, 0x00000000)  returns 0x00 (0000ms, 0836ms total)
T1764 001:149 JLINK_WriteReg(R8, 0x00000000)  returns 0x00 (0000ms, 0836ms total)
T1764 001:149 JLINK_WriteReg(R9, 0x1FFFF1A8)  returns 0x00 (0000ms, 0836ms total)
T1764 001:149 JLINK_WriteReg(R10, 0x00000000)  returns 0x00 (0000ms, 0836ms total)
T1764 001:149 JLINK_WriteReg(R11, 0x00000000)  returns 0x00 (0001ms, 0837ms total)
T1764 001:150 JLINK_WriteReg(R12, 0x00000000)  returns 0x00 (0000ms, 0837ms total)
T1764 001:150 JLINK_WriteReg(R13 (SP), 0x20000000)  returns 0x00 (0000ms, 0837ms total)
T1764 001:150 JLINK_WriteReg(R14, 0x1FFFF001)  returns 0x00 (0000ms, 0837ms total)
T1764 001:150 JLINK_WriteReg(R15 (PC), 0x1FFFF118)  returns 0x00 (0000ms, 0837ms total)
T1764 001:150 JLINK_WriteReg(XPSR, 0x01000000)  returns 0x00 (0000ms, 0837ms total)
T1764 001:150 JLINK_WriteReg(MSP, 0x20000000)  returns 0x00 (0000ms, 0837ms total)
T1764 001:150 JLINK_WriteReg(PSP, 0x20000000)  returns 0x00 (0000ms, 0837ms total)
T1764 001:150 JLINK_WriteReg(CFBP, 0x00000000)  returns 0x00 (0000ms, 0837ms total)
T1764 001:150 JLINK_SetBPEx(Addr = 0x1FFFF000, Type = 0xFFFFFFF2)  returns 0x00000005 (0000ms, 0837ms total)
T1764 001:150 JLINK_Go() -- CPU_WriteMem(4 bytes @ 0xE0002000) -- CPU_ReadMem(4 bytes @ 0xE0001000) -- CPU_WriteMem(4 bytes @ 0xE0001000) (0003ms, 0840ms total)
T1764 001:153 JLINK_IsHalted()  returns FALSE (0001ms, 0841ms total)
T1764 001:161 JLINK_IsHalted()  returns FALSE (0000ms, 0840ms total)
T1764 001:165 JLINK_IsHalted()  returns TRUE (0002ms, 0842ms total)
T1764 001:167 JLINK_ReadReg(R15 (PC))  returns 0x1FFFF000 (0000ms, 0840ms total)
T1764 001:167 JLINK_ClrBPEx(BPHandle = 0x00000005)  returns 0x00 (0000ms, 0840ms total)
T1764 001:167 JLINK_ReadReg(R0)  returns 0x00000000 (0000ms, 0840ms total)
T1764 001:167 JLINK_WriteMem(0x1FFFF1AC, 0x0100 Bytes, ...) - Data: 01 46 00 20 20 22 01 24 09 E0 0D 46 D5 40 9D 42 ... -- CPU_WriteMem(256 bytes @ 0x1FFFF1AC)  returns 0x100 (0003ms, 0843ms total)
T1764 001:170 JLINK_WriteReg(R0, 0x00000100)  returns 0x00 (0000ms, 0843ms total)
T1764 001:170 JLINK_WriteReg(R1, 0x00000100)  returns 0x00 (0000ms, 0843ms total)
T1764 001:170 JLINK_WriteReg(R2, 0x1FFFF1AC)  returns 0x00 (0000ms, 0843ms total)
T1764 001:170 JLINK_WriteReg(R3, 0x00000000)  returns 0x00 (0000ms, 0843ms total)
T1764 001:170 JLINK_WriteReg(R4, 0x00000000)  returns 0x00 (0000ms, 0843ms total)
T1764 001:170 JLINK_WriteReg(R5, 0x00000000)  returns 0x00 (0000ms, 0843ms total)
T1764 001:170 JLINK_WriteReg(R6, 0x00000000)  returns 0x00 (0000ms, 0843ms total)
T1764 001:170 JLINK_WriteReg(R7, 0x00000000)  returns 0x00 (0000ms, 0843ms total)
T1764 001:170 JLINK_WriteReg(R8, 0x00000000)  returns 0x00 (0000ms, 0843ms total)
T1764 001:170 JLINK_WriteReg(R9, 0x1FFFF1A8)  returns 0x00 (0000ms, 0843ms total)
T1764 001:170 JLINK_WriteReg(R10, 0x00000000)  returns 0x00 (0000ms, 0843ms total)
T1764 001:170 JLINK_WriteReg(R11, 0x00000000)  returns 0x00 (0000ms, 0843ms total)
T1764 001:170 JLINK_WriteReg(R12, 0x00000000)  returns 0x00 (0000ms, 0843ms total)
T1764 001:170 JLINK_WriteReg(R13 (SP), 0x20000000)  returns 0x00 (0001ms, 0844ms total)
T1764 001:171 JLINK_WriteReg(R14, 0x1FFFF001)  returns 0x00 (0000ms, 0844ms total)
T1764 001:171 JLINK_WriteReg(R15 (PC), 0x1FFFF118)  returns 0x00 (0000ms, 0844ms total)
T1764 001:171 JLINK_WriteReg(XPSR, 0x01000000)  returns 0x00 (0000ms, 0844ms total)
T1764 001:171 JLINK_WriteReg(MSP, 0x20000000)  returns 0x00 (0000ms, 0844ms total)
T1764 001:171 JLINK_WriteReg(PSP, 0x20000000)  returns 0x00 (0000ms, 0844ms total)
T1764 001:171 JLINK_WriteReg(CFBP, 0x00000000)  returns 0x00 (0000ms, 0844ms total)
T1764 001:171 JLINK_SetBPEx(Addr = 0x1FFFF000, Type = 0xFFFFFFF2)  returns 0x00000006 (0000ms, 0844ms total)
T1764 001:171 JLINK_Go() -- CPU_WriteMem(4 bytes @ 0xE0002000) -- CPU_ReadMem(4 bytes @ 0xE0001000) -- CPU_WriteMem(4 bytes @ 0xE0001000) (0004ms, 0848ms total)
T1764 001:175 JLINK_IsHalted()  returns FALSE (0000ms, 0848ms total)
T1764 001:178 JLINK_IsHalted()  returns FALSE (0000ms, 0848ms total)
T1764 001:181 JLINK_IsHalted()  returns FALSE (0000ms, 0848ms total)
T1764 001:183 JLINK_IsHalted()  returns FALSE (0001ms, 0849ms total)
T1764 001:186 JLINK_IsHalted()  returns TRUE (0002ms, 0850ms total)
T1764 001:188 JLINK_ReadReg(R15 (PC))  returns 0x1FFFF000 (0000ms, 0848ms total)
T1764 001:188 JLINK_ClrBPEx(BPHandle = 0x00000006)  returns 0x00 (0000ms, 0848ms total)
T1764 001:188 JLINK_ReadReg(R0)  returns 0x00000000 (0000ms, 0848ms total)
T1764 001:188 JLINK_WriteMem(0x1FFFF1AC, 0x0100 Bytes, ...) - Data: A6 E7 02 46 70 B5 4A 40 D3 0F DB 07 40 00 2D D0 ... -- CPU_WriteMem(256 bytes @ 0x1FFFF1AC)  returns 0x100 (0003ms, 0851ms total)
T1764 001:191 JLINK_WriteReg(R0, 0x00000200)  returns 0x00 (0000ms, 0851ms total)
T1764 001:191 JLINK_WriteReg(R1, 0x00000100)  returns 0x00 (0000ms, 0851ms total)
T1764 001:191 JLINK_WriteReg(R2, 0x1FFFF1AC)  returns 0x00 (0000ms, 0851ms total)
T1764 001:191 JLINK_WriteReg(R3, 0x00000000)  returns 0x00 (0000ms, 0851ms total)
T1764 001:191 JLINK_WriteReg(R4, 0x00000000)  returns 0x00 (0000ms, 0851ms total)
T1764 001:191 JLINK_WriteReg(R5, 0x00000000)  returns 0x00 (0000ms, 0851ms total)
T1764 001:191 JLINK_WriteReg(R6, 0x00000000)  returns 0x00 (0000ms, 0851ms total)
T1764 001:191 JLINK_WriteReg(R7, 0x00000000)  returns 0x00 (0000ms, 0851ms total)
T1764 001:191 JLINK_WriteReg(R8, 0x00000000)  returns 0x00 (0000ms, 0851ms total)
T1764 001:191 JLINK_WriteReg(R9, 0x1FFFF1A8)  returns 0x00 (0000ms, 0851ms total)
T1764 001:191 JLINK_WriteReg(R10, 0x00000000)  returns 0x00 (0000ms, 0851ms total)
T1764 001:191 JLINK_WriteReg(R11, 0x00000000)  returns 0x00 (0000ms, 0851ms total)
T1764 001:191 JLINK_WriteReg(R12, 0x00000000)  returns 0x00 (0000ms, 0851ms total)
T1764 001:191 JLINK_WriteReg(R13 (SP), 0x20000000)  returns 0x00 (0000ms, 0851ms total)
T1764 001:191 JLINK_WriteReg(R14, 0x1FFFF001)  returns 0x00 (0000ms, 0851ms total)
T1764 001:191 JLINK_WriteReg(R15 (PC), 0x1FFFF118)  returns 0x00 (0001ms, 0852ms total)
T1764 001:192 JLINK_WriteReg(XPSR, 0x01000000)  returns 0x00 (0000ms, 0852ms total)
T1764 001:192 JLINK_WriteReg(MSP, 0x20000000)  returns 0x00 (0000ms, 0852ms total)
T1764 001:192 JLINK_WriteReg(PSP, 0x20000000)  returns 0x00 (0000ms, 0852ms total)
T1764 001:192 JLINK_WriteReg(CFBP, 0x00000000)  returns 0x00 (0000ms, 0852ms total)
T1764 001:192 JLINK_SetBPEx(Addr = 0x1FFFF000, Type = 0xFFFFFFF2)  returns 0x00000007 (0000ms, 0852ms total)
T1764 001:192 JLINK_Go() -- CPU_WriteMem(4 bytes @ 0xE0002000) -- CPU_ReadMem(4 bytes @ 0xE0001000) -- CPU_WriteMem(4 bytes @ 0xE0001000) (0003ms, 0855ms total)
T1764 001:195 JLINK_IsHalted()  returns FALSE (0000ms, 0855ms total)
T1764 001:199 JLINK_IsHalted()  returns FALSE (0000ms, 0855ms total)
T1764 001:201 JLINK_IsHalted()  returns FALSE (0001ms, 0856ms total)
T1764 001:204 JLINK_IsHalted()  returns FALSE (0000ms, 0855ms total)
T1764 001:206 JLINK_IsHalted()  returns FALSE (0000ms, 0855ms total)
T1764 001:208 JLINK_IsHalted()  returns TRUE (0001ms, 0856ms total)
T1764 001:209 JLINK_ReadReg(R15 (PC))  returns 0x1FFFF000 (0000ms, 0855ms total)
T1764 001:209 JLINK_ClrBPEx(BPHandle = 0x00000007)  returns 0x00 (0000ms, 0855ms total)
T1764 001:209 JLINK_ReadReg(R0)  returns 0x00000000 (0000ms, 0855ms total)
T1764 001:210 JLINK_WriteMem(0x1FFFF1AC, 0x0100 Bytes, ...) - Data: 09 98 00 24 48 40 09 99 C0 0F 49 00 49 08 09 91 ... -- CPU_WriteMem(256 bytes @ 0x1FFFF1AC)  returns 0x100 (0001ms, 0856ms total)
T1764 001:211 JLINK_WriteReg(R0, 0x00000300)  returns 0x00 (0000ms, 0856ms total)
T1764 001:211 JLINK_WriteReg(R1, 0x00000100)  returns 0x00 (0000ms, 0856ms total)
T1764 001:211 JLINK_WriteReg(R2, 0x1FFFF1AC)  returns 0x00 (0000ms, 0856ms total)
T1764 001:211 JLINK_WriteReg(R3, 0x00000000)  returns 0x00 (0001ms, 0857ms total)
T1764 001:212 JLINK_WriteReg(R4, 0x00000000)  returns 0x00 (0000ms, 0857ms total)
T1764 001:212 JLINK_WriteReg(R5, 0x00000000)  returns 0x00 (0000ms, 0857ms total)
T1764 001:212 JLINK_WriteReg(R6, 0x00000000)  returns 0x00 (0000ms, 0857ms total)
T1764 001:212 JLINK_WriteReg(R7, 0x00000000)  returns 0x00 (0000ms, 0857ms total)
T1764 001:212 JLINK_WriteReg(R8, 0x00000000)  returns 0x00 (0000ms, 0857ms total)
T1764 001:212 JLINK_WriteReg(R9, 0x1FFFF1A8)  returns 0x00 (0000ms, 0857ms total)
T1764 001:212 JLINK_WriteReg(R10, 0x00000000)  returns 0x00 (0000ms, 0857ms total)
T1764 001:212 JLINK_WriteReg(R11, 0x00000000)  returns 0x00 (0000ms, 0857ms total)
T1764 001:212 JLINK_WriteReg(R12, 0x00000000)  returns 0x00 (0000ms, 0857ms total)
T1764 001:212 JLINK_WriteReg(R13 (SP), 0x20000000)  returns 0x00 (0000ms, 0857ms total)
T1764 001:213 JLINK_WriteReg(R14, 0x1FFFF001)  returns 0x00 (0000ms, 0858ms total)
T1764 001:213 JLINK_WriteReg(R15 (PC), 0x1FFFF118)  returns 0x00 (0000ms, 0858ms total)
T1764 001:213 JLINK_WriteReg(XPSR, 0x01000000)  returns 0x00 (0000ms, 0858ms total)
T1764 001:213 JLINK_WriteReg(MSP, 0x20000000)  returns 0x00 (0000ms, 0858ms total)
T1764 001:213 JLINK_WriteReg(PSP, 0x20000000)  returns 0x00 (0000ms, 0858ms total)
T1764 001:213 JLINK_WriteReg(CFBP, 0x00000000)  returns 0x00 (0000ms, 0858ms total)
T1764 001:213 JLINK_SetBPEx(Addr = 0x1FFFF000, Type = 0xFFFFFFF2)  returns 0x00000008 (0000ms, 0858ms total)
T1764 001:213 JLINK_Go() -- CPU_WriteMem(4 bytes @ 0xE0002000) -- CPU_ReadMem(4 bytes @ 0xE0001000) -- CPU_WriteMem(4 bytes @ 0xE0001000) (0003ms, 0861ms total)
T1764 001:216 JLINK_IsHalted()  returns FALSE (0000ms, 0861ms total)
T1764 001:220 JLINK_IsHalted()  returns FALSE (0000ms, 0861ms total)
T1764 001:222 JLINK_IsHalted()  returns FALSE (0000ms, 0861ms total)
T1764 001:225 JLINK_IsHalted()  returns FALSE (0000ms, 0861ms total)
T1764 001:227 JLINK_IsHalted()  returns TRUE (0003ms, 0864ms total)
T1764 001:230 JLINK_ReadReg(R15 (PC))  returns 0x1FFFF000 (0000ms, 0861ms total)
T1764 001:230 JLINK_ClrBPEx(BPHandle = 0x00000008)  returns 0x00 (0000ms, 0861ms total)
T1764 001:230 JLINK_ReadReg(R0)  returns 0x00000000 (0000ms, 0861ms total)
T1764 001:230 JLINK_WriteMem(0x1FFFF1AC, 0x0100 Bytes, ...) - Data: FF FF FF FF FF FF FF FF FF FF FF FF FF FF FE FE ... -- CPU_WriteMem(256 bytes @ 0x1FFFF1AC)  returns 0x100 (0002ms, 0863ms total)
T1764 001:232 JLINK_WriteReg(R0, 0x00000400)  returns 0x00 (0000ms, 0863ms total)
T1764 001:232 JLINK_WriteReg(R1, 0x00000100)  returns 0x00 (0000ms, 0863ms total)
T1764 001:232 JLINK_WriteReg(R2, 0x1FFFF1AC)  returns 0x00 (0000ms, 0863ms total)
T1764 001:232 JLINK_WriteReg(R3, 0x00000000)  returns 0x00 (0000ms, 0863ms total)
T1764 001:232 JLINK_WriteReg(R4, 0x00000000)  returns 0x00 (0000ms, 0863ms total)
T1764 001:232 JLINK_WriteReg(R5, 0x00000000)  returns 0x00 (0000ms, 0863ms total)
T1764 001:232 JLINK_WriteReg(R6, 0x00000000)  returns 0x00 (0000ms, 0863ms total)
T1764 001:232 JLINK_WriteReg(R7, 0x00000000)  returns 0x00 (0000ms, 0863ms total)
T1764 001:232 JLINK_WriteReg(R8, 0x00000000)  returns 0x00 (0000ms, 0863ms total)
T1764 001:232 JLINK_WriteReg(R9, 0x1FFFF1A8)  returns 0x00 (0000ms, 0863ms total)
T1764 001:232 JLINK_WriteReg(R10, 0x00000000)  returns 0x00 (0000ms, 0863ms total)
T1764 001:232 JLINK_WriteReg(R11, 0x00000000)  returns 0x00 (0000ms, 0863ms total)
T1764 001:233 JLINK_WriteReg(R12, 0x00000000)  returns 0x00 (0000ms, 0864ms total)
T1764 001:233 JLINK_WriteReg(R13 (SP), 0x20000000)  returns 0x00 (0000ms, 0864ms total)
T1764 001:233 JLINK_WriteReg(R14, 0x1FFFF001)  returns 0x00 (0000ms, 0864ms total)
T1764 001:233 JLINK_WriteReg(R15 (PC), 0x1FFFF118)  returns 0x00 (0000ms, 0864ms total)
T1764 001:233 JLINK_WriteReg(XPSR, 0x01000000)  returns 0x00 (0000ms, 0864ms total)
T1764 001:233 JLINK_WriteReg(MSP, 0x20000000)  returns 0x00 (0000ms, 0864ms total)
T1764 001:233 JLINK_WriteReg(PSP, 0x20000000)  returns 0x00 (0000ms, 0864ms total)
T1764 001:233 JLINK_WriteReg(CFBP, 0x00000000)  returns 0x00 (0000ms, 0864ms total)
T1764 001:233 JLINK_SetBPEx(Addr = 0x1FFFF000, Type = 0xFFFFFFF2)  returns 0x00000009 (0000ms, 0864ms total)
T1764 001:233 JLINK_Go() -- CPU_WriteMem(4 bytes @ 0xE0002000) -- CPU_ReadMem(4 bytes @ 0xE0001000) -- CPU_WriteMem(4 bytes @ 0xE0001000) (0004ms, 0868ms total)
T1764 001:237 JLINK_IsHalted()  returns FALSE (0000ms, 0868ms total)
T1764 001:240 JLINK_IsHalted()  returns FALSE (0000ms, 0868ms total)
T1764 001:242 JLINK_IsHalted()  returns FALSE (0000ms, 0868ms total)
T1764 001:245 JLINK_IsHalted()  returns FALSE (0000ms, 0868ms total)
T1764 001:248 JLINK_IsHalted()  returns TRUE (0002ms, 0870ms total)
T1764 001:250 JLINK_ReadReg(R15 (PC))  returns 0x1FFFF000 (0000ms, 0868ms total)
T1764 001:250 JLINK_ClrBPEx(BPHandle = 0x00000009)  returns 0x00 (0000ms, 0868ms total)
T1764 001:250 JLINK_ReadReg(R0)  returns 0x00000000 (0000ms, 0868ms total)
T1764 001:250 JLINK_WriteMem(0x1FFFF1AC, 0x0100 Bytes, ...) - Data: E2 0F 10 43 6D 19 64 41 13 E0 E2 07 6D 08 15 43 ... -- CPU_WriteMem(256 bytes @ 0x1FFFF1AC)  returns 0x100 (0002ms, 0870ms total)
T1764 001:252 JLINK_WriteReg(R0, 0x00000500)  returns 0x00 (0000ms, 0870ms total)
T1764 001:252 JLINK_WriteReg(R1, 0x00000100)  returns 0x00 (0000ms, 0870ms total)
T1764 001:252 JLINK_WriteReg(R2, 0x1FFFF1AC)  returns 0x00 (0000ms, 0870ms total)
T1764 001:252 JLINK_WriteReg(R3, 0x00000000)  returns 0x00 (0000ms, 0870ms total)
T1764 001:252 JLINK_WriteReg(R4, 0x00000000)  returns 0x00 (0000ms, 0870ms total)
T1764 001:252 JLINK_WriteReg(R5, 0x00000000)  returns 0x00 (0000ms, 0870ms total)
T1764 001:252 JLINK_WriteReg(R6, 0x00000000)  returns 0x00 (0000ms, 0870ms total)
T1764 001:252 JLINK_WriteReg(R7, 0x00000000)  returns 0x00 (0000ms, 0870ms total)
T1764 001:252 JLINK_WriteReg(R8, 0x00000000)  returns 0x00 (0000ms, 0870ms total)
T1764 001:252 JLINK_WriteReg(R9, 0x1FFFF1A8)  returns 0x00 (0000ms, 0870ms total)
T1764 001:252 JLINK_WriteReg(R10, 0x00000000)  returns 0x00 (0000ms, 0870ms total)
T1764 001:252 JLINK_WriteReg(R11, 0x00000000)  returns 0x00 (0001ms, 0871ms total)
T1764 001:253 JLINK_WriteReg(R12, 0x00000000)  returns 0x00 (0000ms, 0871ms total)
T1764 001:253 JLINK_WriteReg(R13 (SP), 0x20000000)  returns 0x00 (0000ms, 0871ms total)
T1764 001:253 JLINK_WriteReg(R14, 0x1FFFF001)  returns 0x00 (0000ms, 0871ms total)
T1764 001:253 JLINK_WriteReg(R15 (PC), 0x1FFFF118)  returns 0x00 (0000ms, 0871ms total)
T1764 001:253 JLINK_WriteReg(XPSR, 0x01000000)  returns 0x00 (0000ms, 0871ms total)
T1764 001:253 JLINK_WriteReg(MSP, 0x20000000)  returns 0x00 (0000ms, 0871ms total)
T1764 001:253 JLINK_WriteReg(PSP, 0x20000000)  returns 0x00 (0000ms, 0871ms total)
T1764 001:253 JLINK_WriteReg(CFBP, 0x00000000)  returns 0x00 (0000ms, 0871ms total)
T1764 001:253 JLINK_SetBPEx(Addr = 0x1FFFF000, Type = 0xFFFFFFF2)  returns 0x0000000A (0000ms, 0871ms total)
T1764 001:253 JLINK_Go() -- CPU_WriteMem(4 bytes @ 0xE0002000) -- CPU_ReadMem(4 bytes @ 0xE0001000) -- CPU_WriteMem(4 bytes @ 0xE0001000) (0004ms, 0875ms total)
T1764 001:257 JLINK_IsHalted()  returns FALSE (0000ms, 0875ms total)
T1764 001:261 JLINK_IsHalted()  returns FALSE (0000ms, 0875ms total)
T1764 001:263 JLINK_IsHalted()  returns FALSE (0000ms, 0875ms total)
T1764 001:266 JLINK_IsHalted()  returns FALSE (0000ms, 0875ms total)
T1764 001:268 JLINK_IsHalted()  returns TRUE (0001ms, 0876ms total)
T1764 001:269 JLINK_ReadReg(R15 (PC))  returns 0x1FFFF000 (0000ms, 0875ms total)
T1764 001:269 JLINK_ClrBPEx(BPHandle = 0x0000000A)  returns 0x00 (0000ms, 0875ms total)
T1764 001:269 JLINK_ReadReg(R0)  returns 0x00000000 (0000ms, 0875ms total)
T1764 001:271 JLINK_WriteMem(0x1FFFF1AC, 0x0100 Bytes, ...) - Data: 07 43 0C 43 A6 46 CD 07 40 08 49 08 28 43 92 18 ... -- CPU_WriteMem(256 bytes @ 0x1FFFF1AC)  returns 0x100 (0001ms, 0876ms total)
T1764 001:272 JLINK_WriteReg(R0, 0x00000600)  returns 0x00 (0000ms, 0876ms total)
T1764 001:272 JLINK_WriteReg(R1, 0x00000100)  returns 0x00 (0000ms, 0876ms total)
T1764 001:272 JLINK_WriteReg(R2, 0x1FFFF1AC)  returns 0x00 (0000ms, 0876ms total)
T1764 001:272 JLINK_WriteReg(R3, 0x00000000)  returns 0x00 (0000ms, 0876ms total)
T1764 001:272 JLINK_WriteReg(R4, 0x00000000)  returns 0x00 (0000ms, 0876ms total)
T1764 001:272 JLINK_WriteReg(R5, 0x00000000)  returns 0x00 (0001ms, 0877ms total)
T1764 001:273 JLINK_WriteReg(R6, 0x00000000)  returns 0x00 (0000ms, 0877ms total)
T1764 001:273 JLINK_WriteReg(R7, 0x00000000)  returns 0x00 (0000ms, 0877ms total)
T1764 001:273 JLINK_WriteReg(R8, 0x00000000)  returns 0x00 (0000ms, 0877ms total)
T1764 001:273 JLINK_WriteReg(R9, 0x1FFFF1A8)  returns 0x00 (0000ms, 0877ms total)
T1764 001:273 JLINK_WriteReg(R10, 0x00000000)  returns 0x00 (0000ms, 0877ms total)
T1764 001:273 JLINK_WriteReg(R11, 0x00000000)  returns 0x00 (0000ms, 0877ms total)
T1764 001:273 JLINK_WriteReg(R12, 0x00000000)  returns 0x00 (0000ms, 0877ms total)
T1764 001:273 JLINK_WriteReg(R13 (SP), 0x20000000)  returns 0x00 (0000ms, 0877ms total)
T1764 001:273 JLINK_WriteReg(R14, 0x1FFFF001)  returns 0x00 (0000ms, 0877ms total)
T1764 001:273 JLINK_WriteReg(R15 (PC), 0x1FFFF118)  returns 0x00 (0001ms, 0878ms total)
T1764 001:274 JLINK_WriteReg(XPSR, 0x01000000)  returns 0x00 (0000ms, 0878ms total)
T1764 001:274 JLINK_WriteReg(MSP, 0x20000000)  returns 0x00 (0000ms, 0878ms total)
T1764 001:274 JLINK_WriteReg(PSP, 0x20000000)  returns 0x00 (0000ms, 0878ms total)
T1764 001:274 JLINK_WriteReg(CFBP, 0x00000000)  returns 0x00 (0000ms, 0878ms total)
T1764 001:274 JLINK_SetBPEx(Addr = 0x1FFFF000, Type = 0xFFFFFFF2)  returns 0x0000000B (0000ms, 0878ms total)
T1764 001:274 JLINK_Go() -- CPU_WriteMem(4 bytes @ 0xE0002000) -- CPU_ReadMem(4 bytes @ 0xE0001000) -- CPU_WriteMem(4 bytes @ 0xE0001000) (0002ms, 0880ms total)
T1764 001:276 JLINK_IsHalted()  returns FALSE (0001ms, 0881ms total)
T1764 001:280 JLINK_IsHalted()  returns FALSE (0000ms, 0880ms total)
T1764 001:283 JLINK_IsHalted()  returns FALSE (0001ms, 0881ms total)
T1764 001:285 JLINK_IsHalted()  returns FALSE (0001ms, 0881ms total)
T1764 001:288 JLINK_IsHalted()  returns TRUE (0003ms, 0883ms total)
T1764 001:291 JLINK_ReadReg(R15 (PC))  returns 0x1FFFF000 (0000ms, 0880ms total)
T1764 001:291 JLINK_ClrBPEx(BPHandle = 0x0000000B)  returns 0x00 (0000ms, 0880ms total)
T1764 001:292 JLINK_ReadReg(R0)  returns 0x00000000 (0000ms, 0881ms total)
T1764 001:294 JLINK_WriteMem(0x1FFFF1AC, 0x0100 Bytes, ...) - Data: 70 47 C2 0F D2 07 40 00 40 08 0B D0 C1 0D 07 23 ... -- CPU_WriteMem(256 bytes @ 0x1FFFF1AC)  returns 0x100 (0002ms, 0883ms total)
T1764 001:296 JLINK_WriteReg(R0, 0x00000700)  returns 0x00 (0001ms, 0884ms total)
T1764 001:297 JLINK_WriteReg(R1, 0x00000100)  returns 0x00 (0000ms, 0884ms total)
T1764 001:297 JLINK_WriteReg(R2, 0x1FFFF1AC)  returns 0x00 (0000ms, 0884ms total)
T1764 001:298 JLINK_WriteReg(R3, 0x00000000)  returns 0x00 (0000ms, 0885ms total)
T1764 001:298 JLINK_WriteReg(R4, 0x00000000)  returns 0x00 (0000ms, 0885ms total)
T1764 001:298 JLINK_WriteReg(R5, 0x00000000)  returns 0x00 (0001ms, 0886ms total)
T1764 001:299 JLINK_WriteReg(R6, 0x00000000)  returns 0x00 (0000ms, 0886ms total)
T1764 001:299 JLINK_WriteReg(R7, 0x00000000)  returns 0x00 (0001ms, 0887ms total)
T1764 001:300 JLINK_WriteReg(R8, 0x00000000)  returns 0x00 (0000ms, 0887ms total)
T1764 001:300 JLINK_WriteReg(R9, 0x1FFFF1A8)  returns 0x00 (0000ms, 0887ms total)
T1764 001:300 JLINK_WriteReg(R10, 0x00000000)  returns 0x00 (0001ms, 0888ms total)
T1764 001:301 JLINK_WriteReg(R11, 0x00000000)  returns 0x00 (0000ms, 0888ms total)
T1764 001:301 JLINK_WriteReg(R12, 0x00000000)  returns 0x00 (0001ms, 0889ms total)
T1764 001:302 JLINK_WriteReg(R13 (SP), 0x20000000)  returns 0x00 (0000ms, 0889ms total)
T1764 001:302 JLINK_WriteReg(R14, 0x1FFFF001)  returns 0x00 (0001ms, 0890ms total)
T1764 001:303 JLINK_WriteReg(R15 (PC), 0x1FFFF118)  returns 0x00 (0000ms, 0890ms total)
T1764 001:303 JLINK_WriteReg(XPSR, 0x01000000)  returns 0x00 (0001ms, 0891ms total)
T1764 001:304 JLINK_WriteReg(MSP, 0x20000000)  returns 0x00 (0000ms, 0891ms total)
T1764 001:304 JLINK_WriteReg(PSP, 0x20000000)  returns 0x00 (0000ms, 0891ms total)
T1764 001:304 JLINK_WriteReg(CFBP, 0x00000000)  returns 0x00 (0001ms, 0892ms total)
T1764 001:305 JLINK_SetBPEx(Addr = 0x1FFFF000, Type = 0xFFFFFFF2)  returns 0x0000000C (0000ms, 0892ms total)
T1764 001:305 JLINK_Go() -- CPU_WriteMem(4 bytes @ 0xE0002000) -- CPU_ReadMem(4 bytes @ 0xE0001000) -- CPU_WriteMem(4 bytes @ 0xE0001000) (0003ms, 0895ms total)
T1764 001:308 JLINK_IsHalted()  returns FALSE (0001ms, 0896ms total)
T1764 001:312 JLINK_IsHalted()  returns FALSE (0001ms, 0896ms total)
T1764 001:314 JLINK_IsHalted()  returns FALSE (0000ms, 0895ms total)
T1764 001:319 JLINK_IsHalted()  returns FALSE (0000ms, 0895ms total)
T1764 001:321 JLINK_IsHalted()  returns TRUE (0002ms, 0897ms total)
T1764 001:323 JLINK_ReadReg(R15 (PC))  returns 0x1FFFF000 (0000ms, 0895ms total)
T1764 001:323 JLINK_ClrBPEx(BPHandle = 0x0000000C)  returns 0x00 (0000ms, 0895ms total)
T1764 001:323 JLINK_ReadReg(R0)  returns 0x00000000 (0001ms, 0896ms total)
T1764 001:324 JLINK_WriteMem(0x1FFFF1AC, 0x0100 Bytes, ...) - Data: D0 40 20 24 A2 1A 91 40 08 43 19 46 10 BD 00 29 ... -- CPU_WriteMem(256 bytes @ 0x1FFFF1AC)  returns 0x100 (0002ms, 0898ms total)
T1764 001:326 JLINK_WriteReg(R0, 0x00000800)  returns 0x00 (0000ms, 0898ms total)
T1764 001:326 JLINK_WriteReg(R1, 0x00000100)  returns 0x00 (0001ms, 0899ms total)
T1764 001:327 JLINK_WriteReg(R2, 0x1FFFF1AC)  returns 0x00 (0000ms, 0899ms total)
T1764 001:327 JLINK_WriteReg(R3, 0x00000000)  returns 0x00 (0000ms, 0899ms total)
T1764 001:327 JLINK_WriteReg(R4, 0x00000000)  returns 0x00 (0000ms, 0899ms total)
T1764 001:327 JLINK_WriteReg(R5, 0x00000000)  returns 0x00 (0000ms, 0899ms total)
T1764 001:327 JLINK_WriteReg(R6, 0x00000000)  returns 0x00 (0000ms, 0899ms total)
T1764 001:327 JLINK_WriteReg(R7, 0x00000000)  returns 0x00 (0000ms, 0899ms total)
T1764 001:328 JLINK_WriteReg(R8, 0x00000000)  returns 0x00 (0000ms, 0900ms total)
T1764 001:328 JLINK_WriteReg(R9, 0x1FFFF1A8)  returns 0x00 (0000ms, 0900ms total)
T1764 001:328 JLINK_WriteReg(R10, 0x00000000)  returns 0x00 (0000ms, 0900ms total)
T1764 001:328 JLINK_WriteReg(R11, 0x00000000)  returns 0x00 (0000ms, 0900ms total)
T1764 001:328 JLINK_WriteReg(R12, 0x00000000)  returns 0x00 (0000ms, 0900ms total)
T1764 001:328 JLINK_WriteReg(R13 (SP), 0x20000000)  returns 0x00 (0001ms, 0901ms total)
T1764 001:329 JLINK_WriteReg(R14, 0x1FFFF001)  returns 0x00 (0000ms, 0901ms total)
T1764 001:329 JLINK_WriteReg(R15 (PC), 0x1FFFF118)  returns 0x00 (0000ms, 0901ms total)
T1764 001:329 JLINK_WriteReg(XPSR, 0x01000000)  returns 0x00 (0000ms, 0901ms total)
T1764 001:329 JLINK_WriteReg(MSP, 0x20000000)  returns 0x00 (0000ms, 0901ms total)
T1764 001:329 JLINK_WriteReg(PSP, 0x20000000)  returns 0x00 (0000ms, 0901ms total)
T1764 001:329 JLINK_WriteReg(CFBP, 0x00000000)  returns 0x00 (0000ms, 0901ms total)
T1764 001:329 JLINK_SetBPEx(Addr = 0x1FFFF000, Type = 0xFFFFFFF2)  returns 0x0000000D (0001ms, 0902ms total)
T1764 001:330 JLINK_Go() -- CPU_WriteMem(4 bytes @ 0xE0002000) -- CPU_ReadMem(4 bytes @ 0xE0001000) -- CPU_WriteMem(4 bytes @ 0xE0001000) (0002ms, 0904ms total)
T1764 001:332 JLINK_IsHalted()  returns FALSE (0000ms, 0904ms total)
T1764 001:337 JLINK_IsHalted()  returns FALSE (0000ms, 0904ms total)
T1764 001:339 JLINK_IsHalted()  returns FALSE (0000ms, 0904ms total)
T1764 001:341 JLINK_IsHalted()  returns FALSE (0000ms, 0904ms total)
T1764 001:343 JLINK_IsHalted()  returns TRUE (0002ms, 0906ms total)
T1764 001:345 JLINK_ReadReg(R15 (PC))  returns 0x1FFFF000 (0000ms, 0904ms total)
T1764 001:345 JLINK_ClrBPEx(BPHandle = 0x0000000D)  returns 0x00 (0000ms, 0904ms total)
T1764 001:345 JLINK_ReadReg(R0)  returns 0x00000000 (0000ms, 0904ms total)
T1764 001:346 JLINK_WriteMem(0x1FFFF1AC, 0x0100 Bytes, ...) - Data: 63 FF 08 43 05 D0 01 20 04 E0 20 46 39 46 07 B0 ... -- CPU_WriteMem(256 bytes @ 0x1FFFF1AC)  returns 0x100 (0001ms, 0905ms total)
T1764 001:348 JLINK_WriteReg(R0, 0x00000900)  returns 0x00 (0000ms, 0905ms total)
T1764 001:348 JLINK_WriteReg(R1, 0x00000100)  returns 0x00 (0000ms, 0905ms total)
T1764 001:348 JLINK_WriteReg(R2, 0x1FFFF1AC)  returns 0x00 (0000ms, 0905ms total)
T1764 001:348 JLINK_WriteReg(R3, 0x00000000)  returns 0x00 (0000ms, 0905ms total)
T1764 001:348 JLINK_WriteReg(R4, 0x00000000)  returns 0x00 (0000ms, 0905ms total)
T1764 001:348 JLINK_WriteReg(R5, 0x00000000)  returns 0x00 (0000ms, 0905ms total)
T1764 001:348 JLINK_WriteReg(R6, 0x00000000)  returns 0x00 (0000ms, 0905ms total)
T1764 001:348 JLINK_WriteReg(R7, 0x00000000)  returns 0x00 (0000ms, 0905ms total)
T1764 001:348 JLINK_WriteReg(R8, 0x00000000)  returns 0x00 (0000ms, 0905ms total)
T1764 001:348 JLINK_WriteReg(R9, 0x1FFFF1A8)  returns 0x00 (0001ms, 0906ms total)
T1764 001:349 JLINK_WriteReg(R10, 0x00000000)  returns 0x00 (0000ms, 0906ms total)
T1764 001:349 JLINK_WriteReg(R11, 0x00000000)  returns 0x00 (0000ms, 0906ms total)
T1764 001:349 JLINK_WriteReg(R12, 0x00000000)  returns 0x00 (0000ms, 0906ms total)
T1764 001:349 JLINK_WriteReg(R13 (SP), 0x20000000)  returns 0x00 (0000ms, 0906ms total)
T1764 001:349 JLINK_WriteReg(R14, 0x1FFFF001)  returns 0x00 (0000ms, 0906ms total)
T1764 001:349 JLINK_WriteReg(R15 (PC), 0x1FFFF118)  returns 0x00 (0000ms, 0906ms total)
T1764 001:349 JLINK_WriteReg(XPSR, 0x01000000)  returns 0x00 (0000ms, 0906ms total)
T1764 001:349 JLINK_WriteReg(MSP, 0x20000000)  returns 0x00 (0000ms, 0906ms total)
T1764 001:350 JLINK_WriteReg(PSP, 0x20000000)  returns 0x00 (0000ms, 0907ms total)
T1764 001:350 JLINK_WriteReg(CFBP, 0x00000000)  returns 0x00 (0000ms, 0907ms total)
T1764 001:350 JLINK_SetBPEx(Addr = 0x1FFFF000, Type = 0xFFFFFFF2)  returns 0x0000000E (0000ms, 0907ms total)
